
T0094 000:327 SEGGER J-Link V4.98e Log File (0001ms, 0283ms total)
T0094 000:327 DLL Compiled: May  5 2015 11:00:52 (0001ms, 0283ms total)
T0094 000:327 Logging started @ 2018-04-16 09:58 (0001ms, 0283ms total)
T0094 000:328 JLINK_SetWarnOutHandler(...) (0000ms, 0283ms total)
T0094 000:328 JLINK_OpenEx(...)
Firmware: J-Link ARM-OB STM32 compiled Aug 22 2012 19:52:04
Hardware: V7.00
S/N: 20090928
Feature(s): RDI,FlashDL,FlashBP,JFlash,GDBFull  returns O.K. (0271ms, 0554ms total)
T0094 000:599 JLINK_SetErrorOutHandler(...) (0000ms, 0554ms total)
T0094 000:599 JLINK_ExecCommand("ProjectFile = "E:\Mag-nfc-reader\examples\ble_peripheral\ble_app_my_mrfc630_right\pca10040\s132\arm5_no_packs\JLinkSettings.ini"", ...)  returns 0x00 (0002ms, 0556ms total)
T0094 000:601 JLINK_ExecCommand("Device = nRF52832_xxAA", ...)Device "NRF52832_XXAA" selected.  returns 0x00 (0003ms, 0560ms total)
T0094 000:605 JLINK_ExecCommand("DisableConnectionTimeout", ...)  returns 0x01 (0000ms, 0560ms total)
T0094 000:605 JLINK_GetHardwareVersion()  returns 0x11170 (0000ms, 0560ms total)
T0094 000:605 JLINK_GetDLLVersion()  returns 49805 (0000ms, 0560ms total)
T0094 000:605 JLINK_GetFirmwareString(...) (0000ms, 0560ms total)
T0094 000:606 JLINK_GetDLLVersion()  returns 49805 (0000ms, 0560ms total)
T0094 000:606 JLINK_GetCompileDateTime() (0000ms, 0560ms total)
T0094 000:607 JLINK_GetFirmwareString(...) (0000ms, 0560ms total)
T0094 000:607 JLINK_GetHardwareVersion()  returns 0x11170 (0000ms, 0560ms total)
T0094 000:608 JLINK_TIF_Select(JLINKARM_TIF_SWD)  returns 0x00 (0004ms, 0564ms total)
T0094 000:612 JLINK_SetSpeed(5000) (0001ms, 0565ms total)
T0094 000:613 JLINK_GetId() >0x108 TIF>Found SWD-DP with ID 0x2BA01477 >0x35 TIF> >0x0D TIF> >0x28 TIF> >0x0D TIF> >0x28 TIF> >0x35 TIF> >0x0D TIF> >0x28 TIF> >0x35 TIF> >0x35 TIF> >0x35 TIF> >0x35 TIF> >0x0D TIF> >0x28 TIF> >0x0D TIF> >0x28 TIF> >0x35 TIF> >0x0D TIF> >0x28 TIF> >0x0D TIF> >0x28 TIF> >0x0D TIF> >0x28 TIF> >0x35 TIF> >0x35 TIF> >0x0D TIF> >0x28 TIF> >0x35 TIF> >0x35 TIF>Found Cortex-M4 r0p1, Little endian. -- CPU_WriteMem(4 bytes @ 0xE0002000) -- CPU_ReadMem(4 bytes @ 0xE000EDF0)
 -- CPU_ReadMem(4 bytes @ 0xE0002000)FPUnit: 6 code (BP) slots and 2 literal slots -- CPU_ReadMem(4 bytes @ 0xE000EDFC) -- CPU_ReadMem(4 bytes @ 0xE0001000) -- CPU_WriteMem(4 bytes @ 0xE0001000) -- CPU_ReadMem(4 bytes @ 0xE000ED88) -- CPU_WriteMem(4 bytes @ 0xE000ED88) -- CPU_ReadMem(4 bytes @ 0xE000ED88) -- CPU_WriteMem(4 bytes @ 0xE000ED88)CoreSight components:ROMTbl 0 @ E00FF000 -- CPU_ReadMem(16 bytes @ 0xE00FF000) -- CPU_ReadMem(16 bytes @ 0xE000EFF0) -- CPU_ReadMem(16 bytes @ 0xE000EFE0)
ROMTbl 0 [0]: FFF0F000, CID: B105E00D, PID: 000BB00C SCS -- CPU_ReadMem(16 bytes @ 0xE0001FF0) -- CPU_ReadMem(16 bytes @ 0xE0001FE0)ROMTbl 0 [1]: FFF02000, CID: B105E00D, PID: 003BB002 DWT -- CPU_ReadMem(16 bytes @ 0xE0002FF0) -- CPU_ReadMem(16 bytes @ 0xE0002FE0)ROMTbl 0 [2]: FFF03000, CID: B105E00D, PID: 002BB003 FPB -- CPU_ReadMem(16 bytes @ 0xE0000FF0) -- CPU_ReadMem(16 bytes @ 0xE0000FE0)ROMTbl 0 [3]: FFF01000, CID: B105E00D, PID: 003BB001 ITM -- CPU_ReadMem(16 bytes @ 0xE00FF010)
 -- CPU_ReadMem(16 bytes @ 0xE0040FF0) -- CPU_ReadMem(16 bytes @ 0xE0040FE0)ROMTbl 0 [4]: FFF41000, CID: B105900D, PID: 000BB9A1 TPIU -- CPU_ReadMem(16 bytes @ 0xE0041FF0) -- CPU_ReadMem(16 bytes @ 0xE0041FE0)ROMTbl 0 [5]: FFF42000, CID: B105900D, PID: 000BB925 ETM >0x35 TIF>  returns 0x2BA01477 (0062ms, 0627ms total)
T0094 000:675 JLINK_GetDLLVersion()  returns 49805 (0000ms, 0627ms total)
T0094 000:675 JLINK_CORE_GetFound()  returns 0xE0000FF (0000ms, 0627ms total)
T0094 000:675 JLINK_GetDebugInfo(0x100) -- Value=0xE00FF003  returns 0x00 (0000ms, 0627ms total)
T0094 000:676 JLINK_ReadMem (0xE00FF000, 0x0020 Bytes, ...) -- CPU is running -- CPU_ReadMem(32 bytes @ 0xE00FF000) - Data: 03 F0 F0 FF 03 20 F0 FF 03 30 F0 FF 03 10 F0 FF ...  returns 0x00 (0001ms, 0628ms total)
T0094 000:677 JLINK_ReadMem (0xE000EFF0, 0x0010 Bytes, ...) -- CPU is running -- CPU_ReadMem(16 bytes @ 0xE000EFF0) - Data: 0D 00 00 00 E0 00 00 00 05 00 00 00 B1 00 00 00  returns 0x00 (0001ms, 0629ms total)
T0094 000:678 JLINK_ReadMem (0xE000EFD0, 0x0020 Bytes, ...) -- CPU is running -- CPU_ReadMem(32 bytes @ 0xE000EFD0) - Data: 04 00 00 00 00 00 00 00 00 00 00 00 00 00 00 00 ...  returns 0x00 (0002ms, 0631ms total)
T0094 000:680 JLINK_ReadMem (0xE0001FF0, 0x0010 Bytes, ...) -- CPU is running -- CPU_ReadMem(16 bytes @ 0xE0001FF0) - Data: 0D 00 00 00 E0 00 00 00 05 00 00 00 B1 00 00 00  returns 0x00 (0001ms, 0632ms total)
T0094 000:681 JLINK_ReadMem (0xE0001FD0, 0x0020 Bytes, ...) -- CPU is running -- CPU_ReadMem(32 bytes @ 0xE0001FD0) - Data: 04 00 00 00 00 00 00 00 00 00 00 00 00 00 00 00 ...  returns 0x00 (0001ms, 0633ms total)
T0094 000:682 JLINK_ReadMem (0xE0002FF0, 0x0010 Bytes, ...) -- CPU is running -- CPU_ReadMem(16 bytes @ 0xE0002FF0) - Data: 0D 00 00 00 E0 00 00 00 05 00 00 00 B1 00 00 00  returns 0x00 (0001ms, 0634ms total)
T0094 000:683 JLINK_ReadMem (0xE0002FD0, 0x0020 Bytes, ...) -- CPU is running -- CPU_ReadMem(32 bytes @ 0xE0002FD0) - Data: 04 00 00 00 00 00 00 00 00 00 00 00 00 00 00 00 ...  returns 0x00 (0003ms, 0637ms total)
T0094 000:686 JLINK_ReadMem (0xE0000FF0, 0x0010 Bytes, ...) -- CPU is running -- CPU_ReadMem(16 bytes @ 0xE0000FF0) - Data: 0D 00 00 00 E0 00 00 00 05 00 00 00 B1 00 00 00  returns 0x00 (0001ms, 0638ms total)
T0094 000:687 JLINK_ReadMem (0xE0000FD0, 0x0020 Bytes, ...) -- CPU is running -- CPU_ReadMem(32 bytes @ 0xE0000FD0) - Data: 04 00 00 00 00 00 00 00 00 00 00 00 00 00 00 00 ...  returns 0x00 (0002ms, 0640ms total)
T0094 000:689 JLINK_ReadMem (0xE0040FF0, 0x0010 Bytes, ...) -- CPU is running -- CPU_ReadMem(16 bytes @ 0xE0040FF0) - Data: 0D 00 00 00 90 00 00 00 05 00 00 00 B1 00 00 00  returns 0x00 (0001ms, 0641ms total)
T0094 000:690 JLINK_ReadMem (0xE0040FD0, 0x0020 Bytes, ...) -- CPU is running -- CPU_ReadMem(32 bytes @ 0xE0040FD0) - Data: 04 00 00 00 00 00 00 00 00 00 00 00 00 00 00 00 ...  returns 0x00 (0001ms, 0642ms total)
T0094 000:691 JLINK_ReadMem (0xE0041FF0, 0x0010 Bytes, ...) -- CPU is running -- CPU_ReadMem(16 bytes @ 0xE0041FF0) - Data: 0D 00 00 00 90 00 00 00 05 00 00 00 B1 00 00 00  returns 0x00 (0001ms, 0643ms total)
T0094 000:692 JLINK_ReadMem (0xE0041FD0, 0x0020 Bytes, ...) -- CPU is running -- CPU_ReadMem(32 bytes @ 0xE0041FD0) - Data: 04 00 00 00 00 00 00 00 00 00 00 00 00 00 00 00 ...  returns 0x00 (0001ms, 0644ms total)
T0094 000:693 JLINK_ReadMemU32(0xE000EF40, 0x0001 Items, ...) -- CPU is running -- CPU_ReadMem(4 bytes @ 0xE000EF40) - Data: 21 00 11 10  returns 0x01 (0001ms, 0645ms total)
T0094 000:694 JLINK_ReadMemU32(0xE000EF44, 0x0001 Items, ...) -- CPU is running -- CPU_ReadMem(4 bytes @ 0xE000EF44) - Data: 11 00 00 11  returns 0x01 (0001ms, 0646ms total)
T0094 000:695 JLINK_ReadMemU32(0xE000ED00, 0x0001 Items, ...) -- CPU is running -- CPU_ReadMem(4 bytes @ 0xE000ED00) - Data: 41 C2 0F 41  returns 0x01 (0001ms, 0647ms total)
T0094 000:696 JLINK_SetResetType(JLINKARM_RESET_TYPE_NORMAL)  returns JLINKARM_RESET_TYPE_NORMAL (0000ms, 0647ms total)
T0094 000:696 JLINK_Reset() -- CPU is running -- CPU_WriteMem(4 bytes @ 0xE000EDF0) -- CPU is running -- CPU_WriteMem(4 bytes @ 0xE000EDFC) >0x35 TIF> -- CPU is running -- CPU_WriteMem(4 bytes @ 0xE000ED0C) -- CPU is running -- CPU_ReadMem(4 bytes @ 0xE000EDF0) -- CPU is running -- CPU_ReadMem(4 bytes @ 0xE000EDF0) -- CPU is running -- CPU_WriteMem(4 bytes @ 0xE000EDF0) -- CPU is running -- CPU_WriteMem(4 bytes @ 0xE000EDFC) -- CPU is running -- CPU_ReadMem(4 bytes @ 0xE000EDF0)
 -- CPU_WriteMem(4 bytes @ 0xE0002000) -- CPU_ReadMem(4 bytes @ 0xE000EDFC) -- CPU_ReadMem(4 bytes @ 0xE0001000) (0024ms, 0671ms total)
T0094 000:720 JLINK_ReadReg(R15 (PC))  returns 0x000008E4 (0000ms, 0671ms total)
T0094 000:720 JLINK_ReadReg(XPSR)  returns 0x01000000 (0000ms, 0671ms total)
T0094 000:720 JLINK_Halt()  returns 0x00 (0000ms, 0671ms total)
T0094 000:720 JLINK_IsHalted()  returns TRUE (0000ms, 0671ms total)
T0094 000:721 JLINK_ReadMemU32(0xE000EDF0, 0x0001 Items, ...) -- CPU_ReadMem(4 bytes @ 0xE000EDF0) - Data: 03 00 03 00  returns 0x01 (0001ms, 0672ms total)
T0094 000:722 JLINK_WriteU32(0xE000EDF0, 0xA05F0003) -- CPU_WriteMem(4 bytes @ 0xE000EDF0)  returns 0x00 (0001ms, 0673ms total)
T0094 000:723 JLINK_WriteU32(0xE000EDFC, 0x01000000) -- CPU_WriteMem(4 bytes @ 0xE000EDFC)  returns 0x00 (0001ms, 0674ms total)
T0094 000:725 JLINK_GetHWStatus(...)  returns 0x00 (0000ms, 0674ms total)
T0094 000:725 JLINK_GetNumBPUnits(Type = 0xFFFFFF00)  returns 0x06 (0000ms, 0674ms total)
T0094 000:725 JLINK_GetNumBPUnits(Type = 0xF0)  returns 0x2000 (0000ms, 0674ms total)
T0094 000:725 JLINK_GetNumWPUnits()  returns 0x04 (0001ms, 0675ms total)
T0094 000:727 JLINK_GetSpeed()  returns 0xFA0 (0000ms, 0675ms total)
T0094 000:727 JLINK_ReadMemU32(0xE000E004, 0x0001 Items, ...) -- CPU_ReadMem(4 bytes @ 0xE000E004) - Data: 01 00 00 00  returns 0x01 (0002ms, 0677ms total)
T0094 000:729 JLINK_ReadMemU32(0xE000E004, 0x0001 Items, ...) -- CPU_ReadMem(4 bytes @ 0xE000E004) - Data: 01 00 00 00  returns 0x01 (0001ms, 0678ms total)
T0094 000:730 JLINK_WriteMem(0xE0001000, 0x001C Bytes, ...) - Data: 01 00 00 00 00 00 00 00 00 00 00 00 00 00 00 00 ... -- CPU_WriteMem(28 bytes @ 0xE0001000)  returns 0x1C (0002ms, 0680ms total)
T0094 000:732 JLINK_ReadMem (0xE0001000, 0x001C Bytes, ...) -- CPU_ReadMem(28 bytes @ 0xE0001000) - Data: 01 00 00 40 00 00 00 00 00 00 00 00 00 00 00 00 ...  returns 0x00 (0001ms, 0681ms total)
T0094 000:733 JLINK_ReadReg(R15 (PC))  returns 0x000008E4 (0000ms, 0681ms total)
T0094 000:733 JLINK_ReadReg(XPSR)  returns 0x01000000 (0000ms, 0681ms total)
T0094 000:838 JLINK_SetResetType(JLINKARM_RESET_TYPE_NORMAL)  returns JLINKARM_RESET_TYPE_NORMAL (0000ms, 0681ms total)
T0094 000:838 JLINK_Reset() -- CPU_WriteMem(4 bytes @ 0xE000EDF0) -- CPU_WriteMem(4 bytes @ 0xE000EDFC) >0x35 TIF> -- CPU_WriteMem(4 bytes @ 0xE000ED0C) -- CPU_ReadMem(4 bytes @ 0xE000EDF0) -- CPU_ReadMem(4 bytes @ 0xE000EDF0) -- CPU_WriteMem(4 bytes @ 0xE000EDF0) -- CPU_WriteMem(4 bytes @ 0xE000EDFC) -- CPU is running -- CPU_ReadMem(4 bytes @ 0xE000EDF0) -- CPU_WriteMem(4 bytes @ 0xE0002000) -- CPU_ReadMem(4 bytes @ 0xE000EDFC) -- CPU_ReadMem(4 bytes @ 0xE0001000) (0027ms, 0708ms total)
T0094 000:865 JLINK_ReadReg(R15 (PC))  returns 0x000008E4 (0000ms, 0708ms total)
T0094 000:865 JLINK_ReadReg(XPSR)  returns 0x01000000 (0000ms, 0708ms total)
T0094 000:865 JLINK_ReadMem (0x000008E4, 0x003C Bytes, ...) -- CPU_ReadMem(128 bytes @ 0x000008C0) -- Updating C cache (128 bytes @ 0x000008C0) -- Read from C cache (60 bytes @ 0x000008E4) - Data: 06 4B 18 47 06 4A 10 60 01 68 81 F3 08 88 40 68 ...  returns 0x00 (0003ms, 0711ms total)
T19DC 001:928 JLINK_SetBPEx(Addr = 0x00022894, Type = 0xFFFFFFF2)  returns 0x00000001 (0001ms, 0712ms total)
T19DC 001:929 JLINK_Go() -- CPU_WriteMem(4 bytes @ 0xE0002000) -- CPU_ReadMem(4 bytes @ 0xE0001000) -- CPU_WriteMem(4 bytes @ 0xE0002008) -- CPU_WriteMem(4 bytes @ 0xE000200C) -- CPU_WriteMem(4 bytes @ 0xE0002010) -- CPU_WriteMem(4 bytes @ 0xE0002014) -- CPU_WriteMem(4 bytes @ 0xE0002018) -- CPU_WriteMem(4 bytes @ 0xE000201C) -- CPU_WriteMem(4 bytes @ 0xE0001004) (0011ms, 0723ms total)
T19DC 002:040 JLINK_IsHalted()  returns TRUE (0006ms, 0729ms total)
T19DC 002:046 JLINK_Halt()  returns 0x00 (0000ms, 0723ms total)
T19DC 002:046 JLINK_IsHalted()  returns TRUE (0000ms, 0723ms total)
T19DC 002:046 JLINK_IsHalted()  returns TRUE (0000ms, 0723ms total)
T19DC 002:046 JLINK_IsHalted()  returns TRUE (0000ms, 0723ms total)
T19DC 002:046 JLINK_ReadReg(R15 (PC))  returns 0x00022894 (0000ms, 0723ms total)
T19DC 002:046 JLINK_ReadReg(XPSR)  returns 0x61000000 (0000ms, 0723ms total)
T19DC 002:046 JLINK_ClrBPEx(BPHandle = 0x00000001)  returns 0x00 (0000ms, 0723ms total)
T19DC 002:046 JLINK_ReadMemU32(0xE000ED30, 0x0001 Items, ...) -- CPU_ReadMem(4 bytes @ 0xE000ED30) - Data: 03 00 00 00  returns 0x01 (0002ms, 0725ms total)
T19DC 002:048 JLINK_ReadMemU32(0xE0001028, 0x0001 Items, ...) -- CPU_ReadMem(4 bytes @ 0xE0001028) - Data: 00 00 00 00  returns 0x01 (0002ms, 0727ms total)
T19DC 002:050 JLINK_ReadMemU32(0xE0001038, 0x0001 Items, ...) -- CPU_ReadMem(4 bytes @ 0xE0001038) - Data: 00 02 00 00  returns 0x01 (0002ms, 0729ms total)
T19DC 002:052 JLINK_ReadMemU32(0xE0001048, 0x0001 Items, ...) -- CPU_ReadMem(4 bytes @ 0xE0001048) - Data: 00 00 00 00  returns 0x01 (0002ms, 0731ms total)
T19DC 002:054 JLINK_ReadMemU32(0xE0001058, 0x0001 Items, ...) -- CPU_ReadMem(4 bytes @ 0xE0001058) - Data: 00 00 00 00  returns 0x01 (0002ms, 0733ms total)
T19DC 002:056 JLINK_ReadReg(R0)  returns 0x00022895 (0000ms, 0733ms total)
T19DC 002:056 JLINK_ReadReg(R1)  returns 0x20005308 (0000ms, 0733ms total)
T19DC 002:056 JLINK_ReadReg(R2)  returns 0x00000000 (0000ms, 0733ms total)
T19DC 002:056 JLINK_ReadReg(R3)  returns 0x0001FC21 (0000ms, 0733ms total)
T19DC 002:056 JLINK_ReadReg(R4)  returns 0x00026CA0 (0000ms, 0733ms total)
T19DC 002:056 JLINK_ReadReg(R5)  returns 0x00026CA0 (0000ms, 0733ms total)
T19DC 002:056 JLINK_ReadReg(R6)  returns 0x00000000 (0000ms, 0733ms total)
T19DC 002:056 JLINK_ReadReg(R7)  returns 0x00000000 (0001ms, 0734ms total)
T19DC 002:057 JLINK_ReadReg(R8)  returns 0x00000000 (0000ms, 0734ms total)
T19DC 002:057 JLINK_ReadReg(R9)  returns 0x00000000 (0000ms, 0734ms total)
T19DC 002:057 JLINK_ReadReg(R10)  returns 0x00000000 (0000ms, 0734ms total)
T19DC 002:057 JLINK_ReadReg(R11)  returns 0x00000000 (0000ms, 0734ms total)
T19DC 002:057 JLINK_ReadReg(R12)  returns 0x00000000 (0000ms, 0734ms total)
T19DC 002:057 JLINK_ReadReg(R13 (SP))  returns 0x20005308 (0000ms, 0734ms total)
T19DC 002:057 JLINK_ReadReg(R14)  returns 0x0001F369 (0000ms, 0734ms total)
T19DC 002:057 JLINK_ReadReg(R15 (PC))  returns 0x00022894 (0000ms, 0734ms total)
T19DC 002:057 JLINK_ReadReg(XPSR)  returns 0x61000000 (0000ms, 0734ms total)
T19DC 002:057 JLINK_ReadReg(MSP)  returns 0x20005308 (0000ms, 0734ms total)
T19DC 002:057 JLINK_ReadReg(PSP)  returns 0x00000000 (0000ms, 0734ms total)
T19DC 002:058 JLINK_ReadReg(CFBP)  returns 0x00000000 (0000ms, 0734ms total)
T19DC 002:058 JLINK_ReadReg(FPSCR)  returns 0x00000000 (0007ms, 0741ms total)
T19DC 002:065 JLINK_ReadReg(FPS0)  returns 0x00000000 (0000ms, 0741ms total)
T19DC 002:065 JLINK_ReadReg(FPS1)  returns 0x00000000 (0000ms, 0741ms total)
T19DC 002:065 JLINK_ReadReg(FPS2)  returns 0x00000000 (0000ms, 0741ms total)
T19DC 002:065 JLINK_ReadReg(FPS3)  returns 0x00000000 (0000ms, 0741ms total)
T19DC 002:065 JLINK_ReadReg(FPS4)  returns 0x00000000 (0000ms, 0741ms total)
T19DC 002:065 JLINK_ReadReg(FPS5)  returns 0x00000000 (0000ms, 0741ms total)
T19DC 002:065 JLINK_ReadReg(FPS6)  returns 0x00000000 (0001ms, 0742ms total)
T19DC 002:066 JLINK_ReadReg(FPS7)  returns 0x00000000 (0000ms, 0742ms total)
T19DC 002:066 JLINK_ReadReg(FPS8)  returns 0x00000000 (0000ms, 0742ms total)
T19DC 002:066 JLINK_ReadReg(FPS9)  returns 0x00000000 (0000ms, 0742ms total)
T19DC 002:066 JLINK_ReadReg(FPS10)  returns 0x00000000 (0000ms, 0742ms total)
T19DC 002:066 JLINK_ReadReg(FPS11)  returns 0x00000000 (0000ms, 0742ms total)
T19DC 002:066 JLINK_ReadReg(FPS12)  returns 0x00000000 (0000ms, 0742ms total)
T19DC 002:066 JLINK_ReadReg(FPS13)  returns 0x00000000 (0000ms, 0742ms total)
T19DC 002:066 JLINK_ReadReg(FPS14)  returns 0x00000000 (0000ms, 0742ms total)
T19DC 002:066 JLINK_ReadReg(FPS15)  returns 0x00000000 (0000ms, 0742ms total)
T19DC 002:066 JLINK_ReadReg(FPS16)  returns 0x00000000 (0000ms, 0742ms total)
T19DC 002:066 JLINK_ReadReg(FPS17)  returns 0x00000000 (0000ms, 0742ms total)
T19DC 002:067 JLINK_ReadReg(FPS18)  returns 0x00000000 (0000ms, 0743ms total)
T19DC 002:067 JLINK_ReadReg(FPS19)  returns 0x00000000 (0000ms, 0743ms total)
T19DC 002:067 JLINK_ReadReg(FPS20)  returns 0x00000000 (0000ms, 0743ms total)
T19DC 002:067 JLINK_ReadReg(FPS21)  returns 0x00000000 (0000ms, 0743ms total)
T19DC 002:067 JLINK_ReadReg(FPS22)  returns 0x00000000 (0000ms, 0743ms total)
T19DC 002:067 JLINK_ReadReg(FPS23)  returns 0x00000000 (0000ms, 0743ms total)
T19DC 002:067 JLINK_ReadReg(FPS24)  returns 0x00000000 (0000ms, 0743ms total)
T19DC 002:067 JLINK_ReadReg(FPS25)  returns 0x00000000 (0000ms, 0743ms total)
T19DC 002:067 JLINK_ReadReg(FPS26)  returns 0x00000000 (0000ms, 0743ms total)
T19DC 002:067 JLINK_ReadReg(FPS27)  returns 0x00000000 (0000ms, 0743ms total)
T19DC 002:067 JLINK_ReadReg(FPS28)  returns 0x00000000 (0001ms, 0744ms total)
T19DC 002:068 JLINK_ReadReg(FPS29)  returns 0x00000000 (0000ms, 0744ms total)
T19DC 002:068 JLINK_ReadReg(FPS30)  returns 0x00000000 (0000ms, 0744ms total)
T19DC 002:068 JLINK_ReadReg(FPS31)  returns 0x00000000 (0000ms, 0744ms total)
T0094 002:168 JLINK_ReadMem (0x00022794, 0x003C Bytes, ...) -- CPU_ReadMem(128 bytes @ 0x00022780) -- Updating C cache (128 bytes @ 0x00022780) -- Read from C cache (60 bytes @ 0x00022794) - Data: 01 27 00 20 20 74 4E E0 07 E0 30 49 08 68 00 21 ...  returns 0x00 (0003ms, 0747ms total)
T0094 002:171 JLINK_ReadMem (0x000227D0, 0x0030 Bytes, ...) -- Read from C cache (48 bytes @ 0x000227D0) - Data: 68 69 A0 61 24 48 00 78 08 B1 00 20 60 60 00 BF ...  returns 0x00 (0000ms, 0747ms total)
T0094 002:171 JLINK_ReadMem (0x00022800, 0x000C Bytes, ...) -- CPU_ReadMem(64 bytes @ 0x00022800) -- Updating C cache (64 bytes @ 0x00022800) -- Read from C cache (12 bytes @ 0x00022800) - Data: 20 60 0F E0 19 48 61 68 00 68 03 F0  returns 0x00 (0002ms, 0749ms total)
T0094 002:173 JLINK_ReadMem (0x0002280C, 0x003C Bytes, ...) -- CPU_ReadMem(64 bytes @ 0x00022840) -- Updating C cache (64 bytes @ 0x00022840) -- Read from C cache (60 bytes @ 0x0002280C) - Data: 95 F8 05 46 A0 68 A8 42 03 D9 A0 68 40 1B 20 60 ...  returns 0x00 (0002ms, 0751ms total)
T0094 002:175 JLINK_ReadMem (0x00022848, 0x003C Bytes, ...) -- CPU_ReadMem(64 bytes @ 0x00022880) -- Updating C cache (64 bytes @ 0x00022880) -- Read from C cache (60 bytes @ 0x00022848) - Data: F8 D1 1F B9 04 48 00 68 40 45 02 D0 01 20 BD E8 ...  returns 0x00 (0002ms, 0753ms total)
T0094 002:177 JLINK_ReadMem (0x00022884, 0x003C Bytes, ...) -- Read from C cache (60 bytes @ 0x00022884) - Data: 00 BF 28 46 FD F7 4C FE 00 BF 00 BF 70 BD 00 00 ...  returns 0x00 (0000ms, 0753ms total)
T19DC 008:369 JLINK_SetBPEx(Addr = 0x000228FC, Type = 0xFFFFFFF2)  returns 0x00000002 (0001ms, 0754ms total)
T19DC 008:370 JLINK_Go() -- CPU_WriteMem(4 bytes @ 0xE0002000) -- CPU_ReadMem(4 bytes @ 0xE0001000) -- CPU_WriteMem(4 bytes @ 0xE0002008) (0006ms, 0760ms total)
T19DC 008:476 JLINK_IsHalted()  returns TRUE (0004ms, 0764ms total)
T19DC 008:480 JLINK_Halt()  returns 0x00 (0000ms, 0760ms total)
T19DC 008:480 JLINK_IsHalted()  returns TRUE (0000ms, 0760ms total)
T19DC 008:480 JLINK_IsHalted()  returns TRUE (0001ms, 0761ms total)
T19DC 008:481 JLINK_IsHalted()  returns TRUE (0000ms, 0760ms total)
T19DC 008:481 JLINK_ReadReg(R15 (PC))  returns 0x000228FC (0000ms, 0760ms total)
T19DC 008:481 JLINK_ReadReg(XPSR)  returns 0x61000000 (0000ms, 0760ms total)
T19DC 008:481 JLINK_ClrBPEx(BPHandle = 0x00000002)  returns 0x00 (0000ms, 0760ms total)
T19DC 008:481 JLINK_ReadMemU32(0xE000ED30, 0x0001 Items, ...) -- CPU_ReadMem(4 bytes @ 0xE000ED30) - Data: 03 00 00 00  returns 0x01 (0002ms, 0762ms total)
T19DC 008:483 JLINK_ReadMemU32(0xE0001028, 0x0001 Items, ...) -- CPU_ReadMem(4 bytes @ 0xE0001028) - Data: 00 00 00 00  returns 0x01 (0001ms, 0763ms total)
T19DC 008:484 JLINK_ReadMemU32(0xE0001038, 0x0001 Items, ...) -- CPU_ReadMem(4 bytes @ 0xE0001038) - Data: 00 02 00 00  returns 0x01 (0001ms, 0764ms total)
T19DC 008:485 JLINK_ReadMemU32(0xE0001048, 0x0001 Items, ...) -- CPU_ReadMem(4 bytes @ 0xE0001048) - Data: 00 00 00 00  returns 0x01 (0002ms, 0766ms total)
T19DC 008:487 JLINK_ReadMemU32(0xE0001058, 0x0001 Items, ...) -- CPU_ReadMem(4 bytes @ 0xE0001058) - Data: 00 00 00 00  returns 0x01 (0002ms, 0768ms total)
T19DC 008:489 JLINK_ReadReg(R0)  returns 0x00000000 (0001ms, 0769ms total)
T19DC 008:490 JLINK_ReadReg(R1)  returns 0x00100000 (0000ms, 0769ms total)
T19DC 008:490 JLINK_ReadReg(R2)  returns 0x00000000 (0000ms, 0769ms total)
T19DC 008:490 JLINK_ReadReg(R3)  returns 0x00000001 (0000ms, 0769ms total)
T19DC 008:490 JLINK_ReadReg(R4)  returns 0x00000000 (0000ms, 0769ms total)
T19DC 008:490 JLINK_ReadReg(R5)  returns 0x00000000 (0000ms, 0769ms total)
T19DC 008:490 JLINK_ReadReg(R6)  returns 0x00000000 (0001ms, 0770ms total)
T19DC 008:491 JLINK_ReadReg(R7)  returns 0x00000000 (0000ms, 0770ms total)
T19DC 008:491 JLINK_ReadReg(R8)  returns 0x00000000 (0000ms, 0770ms total)
T19DC 008:491 JLINK_ReadReg(R9)  returns 0x00000000 (0000ms, 0770ms total)
T19DC 008:491 JLINK_ReadReg(R10)  returns 0x00000000 (0000ms, 0770ms total)
T19DC 008:491 JLINK_ReadReg(R11)  returns 0x00000000 (0000ms, 0770ms total)
T19DC 008:491 JLINK_ReadReg(R12)  returns 0x00000003 (0000ms, 0770ms total)
T19DC 008:491 JLINK_ReadReg(R13 (SP))  returns 0x200052D0 (0001ms, 0771ms total)
T19DC 008:492 JLINK_ReadReg(R14)  returns 0x000259A9 (0000ms, 0771ms total)
T19DC 008:492 JLINK_ReadReg(R15 (PC))  returns 0x000228FC (0000ms, 0771ms total)
T19DC 008:492 JLINK_ReadReg(XPSR)  returns 0x61000000 (0000ms, 0771ms total)
T19DC 008:492 JLINK_ReadReg(MSP)  returns 0x200052D0 (0000ms, 0771ms total)
T19DC 008:492 JLINK_ReadReg(PSP)  returns 0x00000000 (0001ms, 0772ms total)
T19DC 008:493 JLINK_ReadReg(CFBP)  returns 0x00000000 (0000ms, 0772ms total)
T19DC 008:493 JLINK_ReadReg(FPSCR)  returns 0x00000000 (0006ms, 0778ms total)
T19DC 008:499 JLINK_ReadReg(FPS0)  returns 0x00000000 (0000ms, 0778ms total)
T19DC 008:499 JLINK_ReadReg(FPS1)  returns 0x00000000 (0000ms, 0778ms total)
T19DC 008:499 JLINK_ReadReg(FPS2)  returns 0x00000000 (0000ms, 0778ms total)
T19DC 008:499 JLINK_ReadReg(FPS3)  returns 0x00000000 (0000ms, 0778ms total)
T19DC 008:499 JLINK_ReadReg(FPS4)  returns 0x00000000 (0000ms, 0778ms total)
T19DC 008:499 JLINK_ReadReg(FPS5)  returns 0x00000000 (0000ms, 0778ms total)
T19DC 008:499 JLINK_ReadReg(FPS6)  returns 0x00000000 (0001ms, 0779ms total)
T19DC 008:500 JLINK_ReadReg(FPS7)  returns 0x00000000 (0000ms, 0779ms total)
T19DC 008:500 JLINK_ReadReg(FPS8)  returns 0x00000000 (0000ms, 0779ms total)
T19DC 008:500 JLINK_ReadReg(FPS9)  returns 0x00000000 (0000ms, 0779ms total)
T19DC 008:500 JLINK_ReadReg(FPS10)  returns 0x00000000 (0000ms, 0779ms total)
T19DC 008:500 JLINK_ReadReg(FPS11)  returns 0x00000000 (0000ms, 0779ms total)
T19DC 008:500 JLINK_ReadReg(FPS12)  returns 0x00000000 (0000ms, 0779ms total)
T19DC 008:500 JLINK_ReadReg(FPS13)  returns 0x00000000 (0001ms, 0780ms total)
T19DC 008:501 JLINK_ReadReg(FPS14)  returns 0x00000000 (0000ms, 0780ms total)
T19DC 008:501 JLINK_ReadReg(FPS15)  returns 0x00000000 (0000ms, 0780ms total)
T19DC 008:501 JLINK_ReadReg(FPS16)  returns 0x00000000 (0000ms, 0780ms total)
T19DC 008:501 JLINK_ReadReg(FPS17)  returns 0x00000000 (0000ms, 0780ms total)
T19DC 008:501 JLINK_ReadReg(FPS18)  returns 0x00000000 (0000ms, 0780ms total)
T19DC 008:501 JLINK_ReadReg(FPS19)  returns 0x00000000 (0000ms, 0780ms total)
T19DC 008:501 JLINK_ReadReg(FPS20)  returns 0x00000000 (0000ms, 0780ms total)
T19DC 008:501 JLINK_ReadReg(FPS21)  returns 0x00000000 (0001ms, 0781ms total)
T19DC 008:502 JLINK_ReadReg(FPS22)  returns 0x00000000 (0000ms, 0781ms total)
T19DC 008:502 JLINK_ReadReg(FPS23)  returns 0x00000000 (0000ms, 0781ms total)
T19DC 008:502 JLINK_ReadReg(FPS24)  returns 0x00000000 (0000ms, 0781ms total)
T19DC 008:502 JLINK_ReadReg(FPS25)  returns 0x00000000 (0000ms, 0781ms total)
T19DC 008:502 JLINK_ReadReg(FPS26)  returns 0x00000000 (0000ms, 0781ms total)
T19DC 008:502 JLINK_ReadReg(FPS27)  returns 0x00000000 (0000ms, 0781ms total)
T19DC 008:502 JLINK_ReadReg(FPS28)  returns 0x00000000 (0001ms, 0782ms total)
T19DC 008:503 JLINK_ReadReg(FPS29)  returns 0x00000000 (0000ms, 0782ms total)
T19DC 008:503 JLINK_ReadReg(FPS30)  returns 0x00000000 (0000ms, 0782ms total)
T19DC 008:503 JLINK_ReadReg(FPS31)  returns 0x00000000 (0000ms, 0782ms total)
T0094 008:508 JLINK_ReadMem (0x000228FA, 0x0002 Bytes, ...) -- CPU_ReadMem(64 bytes @ 0x000228C0) -- Updating C cache (64 bytes @ 0x000228C0) -- Read from C cache (2 bytes @ 0x000228FA) - Data: 00 BF  returns 0x00 (0002ms, 0784ms total)
T0094 008:510 JLINK_ReadMem (0x000228FC, 0x003C Bytes, ...) -- CPU_ReadMem(64 bytes @ 0x00022900) -- Updating C cache (64 bytes @ 0x00022900) -- Read from C cache (60 bytes @ 0x000228FC) - Data: 11 A6 30 46 FC F7 F4 FC 00 F0 FF 09 00 27 B8 46 ...  returns 0x00 (0002ms, 0786ms total)
T0094 011:035 JLINK_ReadMem (0x20005302, 0x0001 Bytes, ...) -- CPU_ReadMem(64 bytes @ 0x20005300) -- Updating C cache (64 bytes @ 0x20005300) -- Read from C cache (1 bytes @ 0x20005302) - Data: 00  returns 0x00 (0003ms, 0789ms total)
T0094 011:038 JLINK_ReadMem (0x20005303, 0x0001 Bytes, ...) -- Read from C cache (1 bytes @ 0x20005303) - Data: 00  returns 0x00 (0000ms, 0789ms total)
T0094 011:038 JLINK_ReadMem (0x20005304, 0x0001 Bytes, ...) -- Read from C cache (1 bytes @ 0x20005304) - Data: 00  returns 0x00 (0000ms, 0789ms total)
T0094 011:038 JLINK_ReadMem (0x20005305, 0x0001 Bytes, ...) -- Read from C cache (1 bytes @ 0x20005305) - Data: 00  returns 0x00 (0001ms, 0790ms total)
T0094 011:039 JLINK_ReadMem (0x20005306, 0x0001 Bytes, ...) -- Read from C cache (1 bytes @ 0x20005306) - Data: 00  returns 0x00 (0000ms, 0790ms total)
T0094 011:039 JLINK_ReadMem (0x20005307, 0x0001 Bytes, ...) -- Read from C cache (1 bytes @ 0x20005307) - Data: 00  returns 0x00 (0000ms, 0790ms total)
T0094 011:039 JLINK_ReadMem (0x20005308, 0x0001 Bytes, ...) -- Read from C cache (1 bytes @ 0x20005308) - Data: 90  returns 0x00 (0000ms, 0790ms total)
T0094 011:040 JLINK_ReadMem (0x20005309, 0x0001 Bytes, ...) -- Read from C cache (1 bytes @ 0x20005309) - Data: 24  returns 0x00 (0000ms, 0790ms total)
T0094 011:040 JLINK_ReadMem (0x2000530A, 0x0001 Bytes, ...) -- Read from C cache (1 bytes @ 0x2000530A) - Data: 11  returns 0x00 (0000ms, 0790ms total)
T0094 011:040 JLINK_ReadMem (0x2000530B, 0x0001 Bytes, ...) -- Read from C cache (1 bytes @ 0x2000530B) - Data: 55  returns 0x00 (0000ms, 0790ms total)
T0094 013:002 JLINK_ReadMem (0x00000000, 0x0001 Bytes, ...) -- CPU_ReadMem(64 bytes @ 0x00000000) -- Updating C cache (64 bytes @ 0x00000000) -- Read from C cache (1 bytes @ 0x00000000) - Data: 00  returns 0x00 (0004ms, 0794ms total)
T0094 024:576 JLINK_ReadMem (0x200052D0, 0x0001 Bytes, ...) -- CPU_ReadMem(64 bytes @ 0x200052C0) -- Updating C cache (64 bytes @ 0x200052C0) -- Read from C cache (1 bytes @ 0x200052D0) - Data: 00  returns 0x00 (0004ms, 0798ms total)
T0094 024:580 JLINK_ReadMem (0x200052D1, 0x0001 Bytes, ...) -- Read from C cache (1 bytes @ 0x200052D1) - Data: 00  returns 0x00 (0000ms, 0798ms total)
T0094 024:580 JLINK_ReadMem (0x200052D2, 0x0001 Bytes, ...) -- Read from C cache (1 bytes @ 0x200052D2) - Data: 00  returns 0x00 (0000ms, 0798ms total)
T0094 024:581 JLINK_ReadMem (0x200052D3, 0x0001 Bytes, ...) -- Read from C cache (1 bytes @ 0x200052D3) - Data: 00  returns 0x00 (0000ms, 0799ms total)
T0094 024:581 JLINK_ReadMem (0x200052D4, 0x0001 Bytes, ...) -- Read from C cache (1 bytes @ 0x200052D4) - Data: 00  returns 0x00 (0000ms, 0799ms total)
T0094 024:581 JLINK_ReadMem (0x200052D5, 0x0001 Bytes, ...) -- Read from C cache (1 bytes @ 0x200052D5) - Data: 00  returns 0x00 (0000ms, 0799ms total)
T0094 024:581 JLINK_ReadMem (0x200052D6, 0x0001 Bytes, ...) -- Read from C cache (1 bytes @ 0x200052D6) - Data: 00  returns 0x00 (0000ms, 0799ms total)
T0094 024:581 JLINK_ReadMem (0x200052D7, 0x0001 Bytes, ...) -- Read from C cache (1 bytes @ 0x200052D7) - Data: 00  returns 0x00 (0001ms, 0800ms total)
T0094 024:582 JLINK_ReadMem (0x200052D8, 0x0001 Bytes, ...) -- Read from C cache (1 bytes @ 0x200052D8) - Data: 00  returns 0x00 (0000ms, 0800ms total)
T0094 024:582 JLINK_ReadMem (0x200052D9, 0x0001 Bytes, ...) -- Read from C cache (1 bytes @ 0x200052D9) - Data: 00  returns 0x00 (0000ms, 0800ms total)
T0094 027:413 JLINK_ReadMem (0x200052DA, 0x0001 Bytes, ...) -- Read from C cache (1 bytes @ 0x200052DA) - Data: 00  returns 0x00 (0002ms, 0802ms total)
T0094 027:415 JLINK_ReadMem (0x200052DB, 0x0001 Bytes, ...) -- Read from C cache (1 bytes @ 0x200052DB) - Data: 00  returns 0x00 (0000ms, 0802ms total)
T0094 027:415 JLINK_ReadMem (0x200052DC, 0x0001 Bytes, ...) -- Read from C cache (1 bytes @ 0x200052DC) - Data: 00  returns 0x00 (0000ms, 0802ms total)
T0094 027:415 JLINK_ReadMem (0x200052DD, 0x0001 Bytes, ...) -- Read from C cache (1 bytes @ 0x200052DD) - Data: 00  returns 0x00 (0000ms, 0802ms total)
T0094 027:415 JLINK_ReadMem (0x200052DE, 0x0001 Bytes, ...) -- Read from C cache (1 bytes @ 0x200052DE) - Data: 00  returns 0x00 (0000ms, 0802ms total)
T0094 027:415 JLINK_ReadMem (0x200052DF, 0x0001 Bytes, ...) -- Read from C cache (1 bytes @ 0x200052DF) - Data: 00  returns 0x00 (0000ms, 0802ms total)
T0094 027:415 JLINK_ReadMem (0x200052E0, 0x0001 Bytes, ...) -- Read from C cache (1 bytes @ 0x200052E0) - Data: 00  returns 0x00 (0000ms, 0802ms total)
T0094 027:415 JLINK_ReadMem (0x200052E1, 0x0001 Bytes, ...) -- Read from C cache (1 bytes @ 0x200052E1) - Data: 00  returns 0x00 (0000ms, 0802ms total)
T0094 027:415 JLINK_ReadMem (0x200052E2, 0x0001 Bytes, ...) -- Read from C cache (1 bytes @ 0x200052E2) - Data: 00  returns 0x00 (0000ms, 0802ms total)
T0094 027:415 JLINK_ReadMem (0x200052E3, 0x0001 Bytes, ...) -- Read from C cache (1 bytes @ 0x200052E3) - Data: 00  returns 0x00 (0000ms, 0802ms total)
T0094 027:415 JLINK_ReadMem (0x200052E4, 0x0001 Bytes, ...) -- Read from C cache (1 bytes @ 0x200052E4) - Data: 00  returns 0x00 (0000ms, 0802ms total)
T0094 027:416 JLINK_ReadMem (0x200052E5, 0x0001 Bytes, ...) -- Read from C cache (1 bytes @ 0x200052E5) - Data: 00  returns 0x00 (0000ms, 0803ms total)
T0094 027:416 JLINK_ReadMem (0x200052E6, 0x0001 Bytes, ...) -- Read from C cache (1 bytes @ 0x200052E6) - Data: 00  returns 0x00 (0000ms, 0803ms total)
T0094 027:416 JLINK_ReadMem (0x200052E7, 0x0001 Bytes, ...) -- Read from C cache (1 bytes @ 0x200052E7) - Data: 00  returns 0x00 (0000ms, 0803ms total)
T0094 027:416 JLINK_ReadMem (0x200052E8, 0x0001 Bytes, ...) -- Read from C cache (1 bytes @ 0x200052E8) - Data: 00  returns 0x00 (0000ms, 0803ms total)
T0094 027:416 JLINK_ReadMem (0x200052E9, 0x0001 Bytes, ...) -- Read from C cache (1 bytes @ 0x200052E9) - Data: 00  returns 0x00 (0000ms, 0803ms total)
T0094 027:416 JLINK_ReadMem (0x200052EA, 0x0001 Bytes, ...) -- Read from C cache (1 bytes @ 0x200052EA) - Data: 00  returns 0x00 (0000ms, 0803ms total)
T0094 027:416 JLINK_ReadMem (0x200052EB, 0x0001 Bytes, ...) -- Read from C cache (1 bytes @ 0x200052EB) - Data: 00  returns 0x00 (0000ms, 0803ms total)
T0094 027:416 JLINK_ReadMem (0x200052EC, 0x0001 Bytes, ...) -- Read from C cache (1 bytes @ 0x200052EC) - Data: 00  returns 0x00 (0000ms, 0803ms total)
T0094 027:416 JLINK_ReadMem (0x200052ED, 0x0001 Bytes, ...) -- Read from C cache (1 bytes @ 0x200052ED) - Data: 00  returns 0x00 (0000ms, 0803ms total)
T0094 027:416 JLINK_ReadMem (0x200052EE, 0x0001 Bytes, ...) -- Read from C cache (1 bytes @ 0x200052EE) - Data: 00  returns 0x00 (0000ms, 0803ms total)
T0094 027:416 JLINK_ReadMem (0x200052EF, 0x0001 Bytes, ...) -- Read from C cache (1 bytes @ 0x200052EF) - Data: 00  returns 0x00 (0000ms, 0803ms total)
T0094 027:416 JLINK_ReadMem (0x200052F0, 0x0001 Bytes, ...) -- Read from C cache (1 bytes @ 0x200052F0) - Data: 00  returns 0x00 (0000ms, 0803ms total)
T0094 027:416 JLINK_ReadMem (0x200052F1, 0x0001 Bytes, ...) -- Read from C cache (1 bytes @ 0x200052F1) - Data: 00  returns 0x00 (0001ms, 0804ms total)
T0094 027:417 JLINK_ReadMem (0x200052F2, 0x0001 Bytes, ...) -- Read from C cache (1 bytes @ 0x200052F2) - Data: 00  returns 0x00 (0000ms, 0804ms total)
T0094 027:417 JLINK_ReadMem (0x200052F3, 0x0001 Bytes, ...) -- Read from C cache (1 bytes @ 0x200052F3) - Data: 00  returns 0x00 (0000ms, 0804ms total)
T0094 027:417 JLINK_ReadMem (0x200052F4, 0x0001 Bytes, ...) -- Read from C cache (1 bytes @ 0x200052F4) - Data: 00  returns 0x00 (0000ms, 0804ms total)
T0094 027:417 JLINK_ReadMem (0x200052F5, 0x0001 Bytes, ...) -- Read from C cache (1 bytes @ 0x200052F5) - Data: 00  returns 0x00 (0000ms, 0804ms total)
T0094 027:417 JLINK_ReadMem (0x200052F6, 0x0001 Bytes, ...) -- Read from C cache (1 bytes @ 0x200052F6) - Data: 00  returns 0x00 (0000ms, 0804ms total)
T0094 027:417 JLINK_ReadMem (0x200052F7, 0x0001 Bytes, ...) -- Read from C cache (1 bytes @ 0x200052F7) - Data: 00  returns 0x00 (0000ms, 0804ms total)
T0094 027:417 JLINK_ReadMem (0x200052F8, 0x0001 Bytes, ...) -- Read from C cache (1 bytes @ 0x200052F8) - Data: 00  returns 0x00 (0000ms, 0804ms total)
T0094 027:417 JLINK_ReadMem (0x200052F9, 0x0001 Bytes, ...) -- Read from C cache (1 bytes @ 0x200052F9) - Data: 00  returns 0x00 (0000ms, 0804ms total)
T0094 027:417 JLINK_ReadMem (0x200052FA, 0x0001 Bytes, ...) -- Read from C cache (1 bytes @ 0x200052FA) - Data: 00  returns 0x00 (0000ms, 0804ms total)
T0094 027:417 JLINK_ReadMem (0x200052FB, 0x0001 Bytes, ...) -- Read from C cache (1 bytes @ 0x200052FB) - Data: 00  returns 0x00 (0000ms, 0804ms total)
T0094 027:417 JLINK_ReadMem (0x200052FC, 0x0001 Bytes, ...) -- Read from C cache (1 bytes @ 0x200052FC) - Data: 00  returns 0x00 (0000ms, 0804ms total)
T0094 027:417 JLINK_ReadMem (0x200052FD, 0x0001 Bytes, ...) -- Read from C cache (1 bytes @ 0x200052FD) - Data: 00  returns 0x00 (0001ms, 0805ms total)
T0094 027:418 JLINK_ReadMem (0x200052FE, 0x0001 Bytes, ...) -- Read from C cache (1 bytes @ 0x200052FE) - Data: 00  returns 0x00 (0000ms, 0805ms total)
T0094 027:418 JLINK_ReadMem (0x200052FF, 0x0001 Bytes, ...) -- Read from C cache (1 bytes @ 0x200052FF) - Data: 00  returns 0x00 (0000ms, 0805ms total)
T0094 027:418 JLINK_ReadMem (0x20005300, 0x0001 Bytes, ...) -- Read from C cache (1 bytes @ 0x20005300) - Data: 00  returns 0x00 (0000ms, 0805ms total)
T0094 027:418 JLINK_ReadMem (0x20005301, 0x0001 Bytes, ...) -- Read from C cache (1 bytes @ 0x20005301) - Data: 00  returns 0x00 (0000ms, 0805ms total)
T19DC 039:414 JLINK_Step() -- Read from C cache (2 bytes @ 0x000228FC) -- CPU_ReadMem(4 bytes @ 0xE0001004) -- Simulated  returns 0x00 (0004ms, 0809ms total)
T19DC 039:418 JLINK_ReadReg(R15 (PC))  returns 0x000228FE (0000ms, 0809ms total)
T19DC 039:418 JLINK_ReadReg(XPSR)  returns 0x61000000 (0000ms, 0809ms total)
T19DC 039:418 JLINK_ReadReg(R0)  returns 0x00000000 (0000ms, 0809ms total)
T19DC 039:418 JLINK_ReadReg(R1)  returns 0x00100000 (0000ms, 0809ms total)
T19DC 039:418 JLINK_ReadReg(R2)  returns 0x00000000 (0000ms, 0809ms total)
T19DC 039:418 JLINK_ReadReg(R3)  returns 0x00000001 (0001ms, 0810ms total)
T19DC 039:419 JLINK_ReadReg(R4)  returns 0x00000000 (0000ms, 0810ms total)
T19DC 039:419 JLINK_ReadReg(R5)  returns 0x00000000 (0000ms, 0810ms total)
T19DC 039:419 JLINK_ReadReg(R6)  returns 0x00022944 (0000ms, 0810ms total)
T19DC 039:419 JLINK_ReadReg(R7)  returns 0x00000000 (0000ms, 0810ms total)
T19DC 039:419 JLINK_ReadReg(R8)  returns 0x00000000 (0000ms, 0810ms total)
T19DC 039:419 JLINK_ReadReg(R9)  returns 0x00000000 (0000ms, 0810ms total)
T19DC 039:419 JLINK_ReadReg(R10)  returns 0x00000000 (0000ms, 0810ms total)
T19DC 039:419 JLINK_ReadReg(R11)  returns 0x00000000 (0001ms, 0811ms total)
T19DC 039:420 JLINK_ReadReg(R12)  returns 0x00000003 (0000ms, 0811ms total)
T19DC 039:420 JLINK_ReadReg(R13 (SP))  returns 0x200052D0 (0000ms, 0811ms total)
T19DC 039:420 JLINK_ReadReg(R14)  returns 0x000259A9 (0000ms, 0811ms total)
T19DC 039:420 JLINK_ReadReg(R15 (PC))  returns 0x000228FE (0000ms, 0811ms total)
T19DC 039:420 JLINK_ReadReg(XPSR)  returns 0x61000000 (0000ms, 0811ms total)
T19DC 039:420 JLINK_ReadReg(MSP)  returns 0x200052D0 (0000ms, 0811ms total)
T19DC 039:420 JLINK_ReadReg(PSP)  returns 0x00000000 (0000ms, 0811ms total)
T19DC 039:420 JLINK_ReadReg(CFBP)  returns 0x00000000 (0000ms, 0811ms total)
T19DC 039:421 JLINK_ReadReg(FPSCR)  returns 0x00000000 (0000ms, 0812ms total)
T19DC 039:421 JLINK_ReadReg(FPS0)  returns 0x00000000 (0000ms, 0812ms total)
T19DC 039:421 JLINK_ReadReg(FPS1)  returns 0x00000000 (0000ms, 0812ms total)
T19DC 039:421 JLINK_ReadReg(FPS2)  returns 0x00000000 (0000ms, 0812ms total)
T19DC 039:421 JLINK_ReadReg(FPS3)  returns 0x00000000 (0000ms, 0812ms total)
T19DC 039:421 JLINK_ReadReg(FPS4)  returns 0x00000000 (0000ms, 0812ms total)
T19DC 039:421 JLINK_ReadReg(FPS5)  returns 0x00000000 (0000ms, 0812ms total)
T19DC 039:421 JLINK_ReadReg(FPS6)  returns 0x00000000 (0000ms, 0812ms total)
T19DC 039:422 JLINK_ReadReg(FPS7)  returns 0x00000000 (0000ms, 0813ms total)
T19DC 039:422 JLINK_ReadReg(FPS8)  returns 0x00000000 (0000ms, 0813ms total)
T19DC 039:422 JLINK_ReadReg(FPS9)  returns 0x00000000 (0000ms, 0813ms total)
T19DC 039:422 JLINK_ReadReg(FPS10)  returns 0x00000000 (0000ms, 0813ms total)
T19DC 039:422 JLINK_ReadReg(FPS11)  returns 0x00000000 (0000ms, 0813ms total)
T19DC 039:422 JLINK_ReadReg(FPS12)  returns 0x00000000 (0000ms, 0813ms total)
T19DC 039:422 JLINK_ReadReg(FPS13)  returns 0x00000000 (0000ms, 0813ms total)
T19DC 039:422 JLINK_ReadReg(FPS14)  returns 0x00000000 (0000ms, 0813ms total)
T19DC 039:423 JLINK_ReadReg(FPS15)  returns 0x00000000 (0000ms, 0814ms total)
T19DC 039:423 JLINK_ReadReg(FPS16)  returns 0x00000000 (0000ms, 0814ms total)
T19DC 039:423 JLINK_ReadReg(FPS17)  returns 0x00000000 (0000ms, 0814ms total)
T19DC 039:423 JLINK_ReadReg(FPS18)  returns 0x00000000 (0000ms, 0814ms total)
T19DC 039:423 JLINK_ReadReg(FPS19)  returns 0x00000000 (0000ms, 0814ms total)
T19DC 039:423 JLINK_ReadReg(FPS20)  returns 0x00000000 (0000ms, 0814ms total)
T19DC 039:423 JLINK_ReadReg(FPS21)  returns 0x00000000 (0000ms, 0814ms total)
T19DC 039:423 JLINK_ReadReg(FPS22)  returns 0x00000000 (0000ms, 0814ms total)
T19DC 039:424 JLINK_ReadReg(FPS23)  returns 0x00000000 (0000ms, 0815ms total)
T19DC 039:424 JLINK_ReadReg(FPS24)  returns 0x00000000 (0000ms, 0815ms total)
T19DC 039:424 JLINK_ReadReg(FPS25)  returns 0x00000000 (0000ms, 0815ms total)
T19DC 039:424 JLINK_ReadReg(FPS26)  returns 0x00000000 (0000ms, 0815ms total)
T19DC 039:424 JLINK_ReadReg(FPS27)  returns 0x00000000 (0000ms, 0815ms total)
T19DC 039:424 JLINK_ReadReg(FPS28)  returns 0x00000000 (0000ms, 0815ms total)
T19DC 039:424 JLINK_ReadReg(FPS29)  returns 0x00000000 (0000ms, 0815ms total)
T19DC 039:424 JLINK_ReadReg(FPS30)  returns 0x00000000 (0000ms, 0815ms total)
T19DC 039:425 JLINK_ReadReg(FPS31)  returns 0x00000000 (0000ms, 0816ms total)
T0094 039:426 JLINK_ReadMem (0x00022944, 0x0020 Bytes, ...) -- CPU_ReadMem(64 bytes @ 0x00022940) -- Updating C cache (64 bytes @ 0x00022940) -- Read from C cache (32 bytes @ 0x00022944) - Data: 41 54 2B 61 75 74 68 2B 31 32 33 00 2D E9 F0 41 ...  returns 0x00 (0002ms, 0818ms total)
T0094 039:431 JLINK_ReadMem (0x200052D0, 0x000A Bytes, ...) -- Read from C cache (10 bytes @ 0x200052D0) - Data: 00 00 00 00 00 00 00 00 00 00  returns 0x00 (0000ms, 0818ms total)
T0094 039:431 JLINK_ReadMem (0x200052DA, 0x000A Bytes, ...) -- Read from C cache (10 bytes @ 0x200052DA) - Data: 00 00 00 00 00 00 00 00 00 00  returns 0x00 (0000ms, 0818ms total)
T0094 039:431 JLINK_ReadMem (0x200052E4, 0x000A Bytes, ...) -- Read from C cache (10 bytes @ 0x200052E4) - Data: 00 00 00 00 00 00 00 00 00 00  returns 0x00 (0000ms, 0818ms total)
T0094 039:432 JLINK_ReadMem (0x200052EE, 0x000A Bytes, ...) -- Read from C cache (10 bytes @ 0x200052EE) - Data: 00 00 00 00 00 00 00 00 00 00  returns 0x00 (0000ms, 0818ms total)
T0094 039:432 JLINK_ReadMem (0x200052F8, 0x000A Bytes, ...) -- Read from C cache (10 bytes @ 0x200052F8) - Data: 00 00 00 00 00 00 00 00 00 00  returns 0x00 (0000ms, 0818ms total)
T0094 039:436 JLINK_ReadMem (0x000228FC, 0x003C Bytes, ...) -- Read from C cache (60 bytes @ 0x000228FC) - Data: 11 A6 30 46 FC F7 F4 FC 00 F0 FF 09 00 27 B8 46 ...  returns 0x00 (0000ms, 0818ms total)
T19DC 059:595 JLINK_Step() -- Read from C cache (2 bytes @ 0x000228FE) -- Simulated  returns 0x00 (0002ms, 0820ms total)
T19DC 059:597 JLINK_ReadReg(R15 (PC))  returns 0x00022900 (0000ms, 0820ms total)
T19DC 059:597 JLINK_ReadReg(XPSR)  returns 0x61000000 (0001ms, 0821ms total)
T19DC 059:598 JLINK_SetBPEx(Addr = 0x00022904, Type = 0xFFFFFFF2)  returns 0x00000003 (0000ms, 0821ms total)
T19DC 059:598 JLINK_SetBPEx(Addr = 0x000228FC, Type = 0xFFFFFFF2)  returns 0x00000004 (0000ms, 0821ms total)
T19DC 059:598 JLINK_Go() -- CPU_WriteMem(4 bytes @ 0xE0002000) -- CPU_WriteMem(4 bytes @ 0xE0002000) -- CPU_ReadMem(4 bytes @ 0xE0001000) -- CPU_WriteMem(4 bytes @ 0xE0002008) -- CPU_WriteMem(4 bytes @ 0xE000200C) -- CPU_WriteMem(4 bytes @ 0xE0001004) (0013ms, 0834ms total)
T19DC 059:711 JLINK_IsHalted()  returns TRUE (0004ms, 0838ms total)
T19DC 059:715 JLINK_Halt()  returns 0x00 (0001ms, 0835ms total)
T19DC 059:716 JLINK_IsHalted()  returns TRUE (0000ms, 0835ms total)
T19DC 059:716 JLINK_IsHalted()  returns TRUE (0000ms, 0835ms total)
T19DC 059:716 JLINK_IsHalted()  returns TRUE (0000ms, 0835ms total)
T19DC 059:716 JLINK_ReadReg(R15 (PC))  returns 0x00022904 (0000ms, 0835ms total)
T19DC 059:716 JLINK_ReadReg(XPSR)  returns 0x21000000 (0000ms, 0835ms total)
T19DC 059:716 JLINK_ClrBPEx(BPHandle = 0x00000003)  returns 0x00 (0000ms, 0835ms total)
T19DC 059:716 JLINK_ClrBPEx(BPHandle = 0x00000004)  returns 0x00 (0000ms, 0835ms total)
T19DC 059:717 JLINK_ReadMemU32(0xE000ED30, 0x0001 Items, ...) -- CPU_ReadMem(4 bytes @ 0xE000ED30) - Data: 03 00 00 00  returns 0x01 (0001ms, 0837ms total)
T19DC 059:718 JLINK_ReadMemU32(0xE0001028, 0x0001 Items, ...) -- CPU_ReadMem(4 bytes @ 0xE0001028) - Data: 00 00 00 00  returns 0x01 (0002ms, 0839ms total)
T19DC 059:720 JLINK_ReadMemU32(0xE0001038, 0x0001 Items, ...) -- CPU_ReadMem(4 bytes @ 0xE0001038) - Data: 00 02 00 00  returns 0x01 (0003ms, 0842ms total)
T19DC 059:723 JLINK_ReadMemU32(0xE0001048, 0x0001 Items, ...) -- CPU_ReadMem(4 bytes @ 0xE0001048) - Data: 00 00 00 00  returns 0x01 (0002ms, 0844ms total)
T19DC 059:725 JLINK_ReadMemU32(0xE0001058, 0x0001 Items, ...) -- CPU_ReadMem(4 bytes @ 0xE0001058) - Data: 00 00 00 00  returns 0x01 (0002ms, 0846ms total)
T19DC 059:727 JLINK_ReadReg(R0)  returns 0x0000000B (0000ms, 0846ms total)
T19DC 059:727 JLINK_ReadReg(R1)  returns 0x00000000 (0000ms, 0846ms total)
T19DC 059:727 JLINK_ReadReg(R2)  returns 0x00022945 (0000ms, 0846ms total)
T19DC 059:727 JLINK_ReadReg(R3)  returns 0x00000001 (0001ms, 0847ms total)
T19DC 059:728 JLINK_ReadReg(R4)  returns 0x00000000 (0000ms, 0847ms total)
T19DC 059:728 JLINK_ReadReg(R5)  returns 0x00000000 (0000ms, 0847ms total)
T19DC 059:728 JLINK_ReadReg(R6)  returns 0x00022944 (0000ms, 0847ms total)
T19DC 059:728 JLINK_ReadReg(R7)  returns 0x00000000 (0000ms, 0847ms total)
T19DC 059:728 JLINK_ReadReg(R8)  returns 0x00000000 (0000ms, 0847ms total)
T19DC 059:728 JLINK_ReadReg(R9)  returns 0x00000000 (0000ms, 0847ms total)
T19DC 059:728 JLINK_ReadReg(R10)  returns 0x00000000 (0001ms, 0848ms total)
T19DC 059:729 JLINK_ReadReg(R11)  returns 0x00000000 (0000ms, 0848ms total)
T19DC 059:729 JLINK_ReadReg(R12)  returns 0x00000003 (0000ms, 0848ms total)
T19DC 059:729 JLINK_ReadReg(R13 (SP))  returns 0x200052D0 (0000ms, 0848ms total)
T19DC 059:729 JLINK_ReadReg(R14)  returns 0x00022905 (0000ms, 0848ms total)
T19DC 059:729 JLINK_ReadReg(R15 (PC))  returns 0x00022904 (0000ms, 0848ms total)
T19DC 059:729 JLINK_ReadReg(XPSR)  returns 0x21000000 (0000ms, 0848ms total)
T19DC 059:729 JLINK_ReadReg(MSP)  returns 0x200052D0 (0001ms, 0849ms total)
T19DC 059:730 JLINK_ReadReg(PSP)  returns 0x00000000 (0000ms, 0849ms total)
T19DC 059:730 JLINK_ReadReg(CFBP)  returns 0x00000000 (0000ms, 0849ms total)
T19DC 059:730 JLINK_ReadReg(FPSCR)  returns 0x00000000 (0007ms, 0856ms total)
T19DC 059:737 JLINK_ReadReg(FPS0)  returns 0x00000000 (0000ms, 0856ms total)
T19DC 059:737 JLINK_ReadReg(FPS1)  returns 0x00000000 (0000ms, 0856ms total)
T19DC 059:737 JLINK_ReadReg(FPS2)  returns 0x00000000 (0001ms, 0857ms total)
T19DC 059:738 JLINK_ReadReg(FPS3)  returns 0x00000000 (0000ms, 0857ms total)
T19DC 059:738 JLINK_ReadReg(FPS4)  returns 0x00000000 (0000ms, 0857ms total)
T19DC 059:738 JLINK_ReadReg(FPS5)  returns 0x00000000 (0000ms, 0857ms total)
T19DC 059:738 JLINK_ReadReg(FPS6)  returns 0x00000000 (0000ms, 0857ms total)
T19DC 059:738 JLINK_ReadReg(FPS7)  returns 0x00000000 (0000ms, 0857ms total)
T19DC 059:738 JLINK_ReadReg(FPS8)  returns 0x00000000 (0000ms, 0857ms total)
T19DC 059:738 JLINK_ReadReg(FPS9)  returns 0x00000000 (0000ms, 0857ms total)
T19DC 059:738 JLINK_ReadReg(FPS10)  returns 0x00000000 (0001ms, 0858ms total)
T19DC 059:739 JLINK_ReadReg(FPS11)  returns 0x00000000 (0000ms, 0858ms total)
T19DC 059:739 JLINK_ReadReg(FPS12)  returns 0x00000000 (0000ms, 0858ms total)
T19DC 059:739 JLINK_ReadReg(FPS13)  returns 0x00000000 (0000ms, 0858ms total)
T19DC 059:739 JLINK_ReadReg(FPS14)  returns 0x00000000 (0000ms, 0858ms total)
T19DC 059:739 JLINK_ReadReg(FPS15)  returns 0x00000000 (0000ms, 0858ms total)
T19DC 059:739 JLINK_ReadReg(FPS16)  returns 0x00000000 (0000ms, 0858ms total)
T19DC 059:739 JLINK_ReadReg(FPS17)  returns 0x00000000 (0000ms, 0858ms total)
T19DC 059:739 JLINK_ReadReg(FPS18)  returns 0x00000000 (0001ms, 0859ms total)
T19DC 059:740 JLINK_ReadReg(FPS19)  returns 0x00000000 (0000ms, 0859ms total)
T19DC 059:740 JLINK_ReadReg(FPS20)  returns 0x00000000 (0000ms, 0859ms total)
T19DC 059:740 JLINK_ReadReg(FPS21)  returns 0x00000000 (0000ms, 0859ms total)
T19DC 059:740 JLINK_ReadReg(FPS22)  returns 0x00000000 (0000ms, 0859ms total)
T19DC 059:740 JLINK_ReadReg(FPS23)  returns 0x00000000 (0000ms, 0859ms total)
T19DC 059:740 JLINK_ReadReg(FPS24)  returns 0x00000000 (0000ms, 0859ms total)
T19DC 059:740 JLINK_ReadReg(FPS25)  returns 0x00000000 (0000ms, 0859ms total)
T19DC 059:740 JLINK_ReadReg(FPS26)  returns 0x00000000 (0001ms, 0860ms total)
T19DC 059:741 JLINK_ReadReg(FPS27)  returns 0x00000000 (0000ms, 0860ms total)
T19DC 059:741 JLINK_ReadReg(FPS28)  returns 0x00000000 (0000ms, 0860ms total)
T19DC 059:741 JLINK_ReadReg(FPS29)  returns 0x00000000 (0000ms, 0860ms total)
T19DC 059:741 JLINK_ReadReg(FPS30)  returns 0x00000000 (0000ms, 0860ms total)
T19DC 059:741 JLINK_ReadReg(FPS31)  returns 0x00000000 (0000ms, 0860ms total)
T0094 059:743 JLINK_ReadMem (0x00022944, 0x0020 Bytes, ...) -- CPU_ReadMem(64 bytes @ 0x00022940) -- Updating C cache (64 bytes @ 0x00022940) -- Read from C cache (32 bytes @ 0x00022944) - Data: 41 54 2B 61 75 74 68 2B 31 32 33 00 2D E9 F0 41 ...  returns 0x00 (0001ms, 0861ms total)
T0094 059:745 JLINK_ReadMem (0x200052D0, 0x000A Bytes, ...) -- CPU_ReadMem(64 bytes @ 0x200052C0) -- Updating C cache (64 bytes @ 0x200052C0) -- Read from C cache (10 bytes @ 0x200052D0) - Data: 00 00 00 00 00 00 00 00 00 00  returns 0x00 (0002ms, 0863ms total)
T0094 059:747 JLINK_ReadMem (0x200052DA, 0x000A Bytes, ...) -- Read from C cache (10 bytes @ 0x200052DA) - Data: 00 00 00 00 00 00 00 00 00 00  returns 0x00 (0000ms, 0863ms total)
T0094 059:747 JLINK_ReadMem (0x200052E4, 0x000A Bytes, ...) -- Read from C cache (10 bytes @ 0x200052E4) - Data: 00 00 00 00 00 00 00 00 00 00  returns 0x00 (0000ms, 0863ms total)
T0094 059:747 JLINK_ReadMem (0x200052EE, 0x000A Bytes, ...) -- Read from C cache (10 bytes @ 0x200052EE) - Data: 00 00 00 00 00 00 00 00 00 00  returns 0x00 (0001ms, 0864ms total)
T0094 059:748 JLINK_ReadMem (0x200052F8, 0x000A Bytes, ...) -- CPU_ReadMem(64 bytes @ 0x20005300) -- Updating C cache (64 bytes @ 0x20005300) -- Read from C cache (10 bytes @ 0x200052F8) - Data: 00 00 00 00 00 00 00 00 00 00  returns 0x00 (0002ms, 0866ms total)
T0094 059:763 JLINK_ReadMem (0x000228FC, 0x003C Bytes, ...) -- CPU_ReadMem(128 bytes @ 0x000228C0) -- Updating C cache (128 bytes @ 0x000228C0) -- Read from C cache (60 bytes @ 0x000228FC) - Data: 11 A6 30 46 FC F7 F4 FC 00 F0 FF 09 00 27 B8 46 ...  returns 0x00 (0003ms, 0869ms total)
T19DC 061:428 JLINK_Step() -- Read from C cache (2 bytes @ 0x00022904) -- CPU_ReadMem(4 bytes @ 0xE0001004) -- Read from C cache (2 bytes @ 0x00022906) -- Simulated  returns 0x00 (0003ms, 0872ms total)
T19DC 061:431 JLINK_ReadReg(R15 (PC))  returns 0x00022908 (0000ms, 0872ms total)
T19DC 061:431 JLINK_ReadReg(XPSR)  returns 0x21000000 (0000ms, 0872ms total)
T19DC 061:431 JLINK_ReadReg(R0)  returns 0x0000000B (0001ms, 0873ms total)
T19DC 061:432 JLINK_ReadReg(R1)  returns 0x00000000 (0000ms, 0873ms total)
T19DC 061:432 JLINK_ReadReg(R2)  returns 0x00022945 (0000ms, 0873ms total)
T19DC 061:432 JLINK_ReadReg(R3)  returns 0x00000001 (0000ms, 0873ms total)
T19DC 061:432 JLINK_ReadReg(R4)  returns 0x00000000 (0000ms, 0873ms total)
T19DC 061:432 JLINK_ReadReg(R5)  returns 0x00000000 (0000ms, 0873ms total)
T19DC 061:432 JLINK_ReadReg(R6)  returns 0x00022944 (0000ms, 0873ms total)
T19DC 061:432 JLINK_ReadReg(R7)  returns 0x00000000 (0000ms, 0873ms total)
T19DC 061:432 JLINK_ReadReg(R8)  returns 0x00000000 (0001ms, 0874ms total)
T19DC 061:433 JLINK_ReadReg(R9)  returns 0x0000000B (0000ms, 0874ms total)
T19DC 061:433 JLINK_ReadReg(R10)  returns 0x00000000 (0000ms, 0874ms total)
T19DC 061:433 JLINK_ReadReg(R11)  returns 0x00000000 (0000ms, 0874ms total)
T19DC 061:433 JLINK_ReadReg(R12)  returns 0x00000003 (0000ms, 0874ms total)
T19DC 061:433 JLINK_ReadReg(R13 (SP))  returns 0x200052D0 (0000ms, 0874ms total)
T19DC 061:433 JLINK_ReadReg(R14)  returns 0x00022905 (0000ms, 0874ms total)
T19DC 061:433 JLINK_ReadReg(R15 (PC))  returns 0x00022908 (0000ms, 0874ms total)
T19DC 061:434 JLINK_ReadReg(XPSR)  returns 0x21000000 (0000ms, 0875ms total)
T19DC 061:434 JLINK_ReadReg(MSP)  returns 0x200052D0 (0000ms, 0875ms total)
T19DC 061:434 JLINK_ReadReg(PSP)  returns 0x00000000 (0000ms, 0875ms total)
T19DC 061:434 JLINK_ReadReg(CFBP)  returns 0x00000000 (0000ms, 0875ms total)
T19DC 061:434 JLINK_ReadReg(FPSCR)  returns 0x00000000 (0000ms, 0875ms total)
T19DC 061:434 JLINK_ReadReg(FPS0)  returns 0x00000000 (0000ms, 0875ms total)
T19DC 061:434 JLINK_ReadReg(FPS1)  returns 0x00000000 (0000ms, 0875ms total)
T19DC 061:434 JLINK_ReadReg(FPS2)  returns 0x00000000 (0000ms, 0875ms total)
T19DC 061:435 JLINK_ReadReg(FPS3)  returns 0x00000000 (0000ms, 0876ms total)
